"Freq [GHz]","mag(St(feedline_T1,feedline_T1)) []","mag(St(feedline_T2,feedline_T1)) []"
1.2,0.260398798818267,0.954569085828034
1.202,0.259345928846795,0.954833261233709
1.204,0.258287226855657,0.955097657170144
1.206,0.257222699041435,0.955362258188832
1.208,0.256152351650602,0.955627048659545
1.21,0.255076190981594,0.955892012771306
1.212,0.253994223386894,0.956157134533411
1.214,0.252906455275145,0.956422397776472
1.216,0.251812893113293,0.956687786153515
1.218,0.25071354342874,0.956953283141101
1.22,0.249608412811533,0.957218872040486
1.222,0.248497507916562,0.957484535978815
1.224,0.247380835465787,0.957750257910349
1.226,0.24625840225047,0.958016020617722
1.228,0.245130215133444,0.958281806713232
1.23,0.24399628105138,0.958547598640161
1.232,0.24285660701708,0.958813378674125
1.234,0.241711200121782,0.959079128924454
1.236,0.240560067537479,0.959344831335601
1.238,0.239403216519255,0.959610467688575
1.24,0.238240654407622,0.959876019602409
1.242,0.237072388630882,0.960141468535644
1.244,0.235898426707493,0.960406795787851
1.246,0.234718776248439,0.960671982501171
1.248,0.233533444959626,0.960937009661882
1.25,0.232342440644266,0.961201858101989
1.252,0.231145771205283,0.961466508500845
1.254,0.229943444647722,0.961730941386788
1.256,0.228735469081159,0.961995137138808
1.258,0.227521852722127,0.962259075988228
1.26,0.226302603896539,0.962522738020419
1.262,0.225077731042117,0.962786103176534
1.264,0.223847242710825,0.963049151255256
1.266,0.22261114757131,0.963311861914579
1.268,0.221369454411336,0.963574214673603
1.27,0.220122172140234,0.963836188914356
1.272,0.218869309791338,0.964097763883629
1.274,0.217610876524437,0.964358918694843
1.276,0.21634688162822,0.964619632329924
1.278,0.21507733452272,0.964879883641207
1.28,0.213802244761768,0.965139651353356
1.282,0.212521622035438,0.965398914065308
1.284,0.211235476172495,0.965657650252226
1.286,0.209943817142841,0.965915838267491
1.288,0.208646655059965,0.966173456344688
1.29,0.207344000183391,0.966430482599629
1.292,0.206035862921117,0.966686895032392
1.294,0.204722253832065,0.966942671529375
1.296,0.203403183628525,0.967197789865364
1.298,0.202078663178599,0.967452227705631
1.3,0.20074870350864,0.96770596260804
1.302,0.199413315805698,0.967958972025175
1.304,0.198072511419964,0.968211233306487
1.306,0.196726301867209,0.968462723700452
1.308,0.195374698831231,0.968713420356751
1.31,0.194017714166295,0.968963300328471
1.312,0.19265535989959,0.969212340574311
1.314,0.191287648233666,0.969460517960819
1.316,0.189914591548896,0.969707809264633
1.318,0.188536202405929,0.969954191174745
1.32,0.187152493548153,0.970199640294779
1.322,0.185763477904165,0.970444133145283
1.324,0.18436916859025,0.970687646166045
1.326,0.182969578912863,0.970930155718407
1.328,0.18156472237113,0.971171638087615
1.33,0.18015461265936,0.971412069485164
1.332,0.178739263669568,0.971651426051176
1.334,0.177318689494021,0.971889683856773
1.336,0.175892904427801,0.972126818906479
1.338,0.174461922971391,0.972362807140632
1.34,0.173025759833286,0.972597624437799
1.342,0.171584429932639,0.972831246617221
1.344,0.17013794840193,0.973063649441255
1.346,0.168686330589684,0.973294808617836
1.348,0.167229592063219,0.97352469980295
1.35,0.165767748611453,0.973753298603116
1.352,0.164300816247749,0.973980580577882
1.354,0.162828811212838,0.974206521242322
1.356,0.161351749977782,0.97443109606956
1.358,0.159869649247032,0.974654280493289
1.36,0.158382525961553,0.9748760499103
1.362,0.156890397302045,0.975096379683027
1.364,0.155393280692253,0.975315245142093
1.366,0.153891193802397,0.975532621588865
1.368,0.15238415455272,0.975748484298016
1.37,0.15087218111716,0.975962808520093
1.372,0.149355291927187,0.976175569484089
1.374,0.147833505675783,0.976386742400021
1.376,0.146306841321619,0.976596302461505
1.378,0.144775318093422,0.97680422484835
1.38,0.14323895549456,0.977010484729131
1.382,0.141697773307873,0.977215057263788
1.384,0.140151791600773,0.977417917606203
1.386,0.13860103073063,0.977619040906793
1.388,0.13704551135049,0.977818402315091
1.39,0.135485254415156,0.978015976982328
1.392,0.133920281187653,0.978211740064016
1.394,0.132350613246143,0.97840566672252
1.396,0.130776272491323,0.978597732129624
1.398,0.129197281154353,0.978787911469093
1.4,0.127613661805378,0.978976179939229
1.402,0.126025437362714,0.979162512755411
1.404,0.124432631102751,0.979346885152628
1.406,0.12283526667067,0.979529272388002
1.408,0.121233368092044,0.979709649743289
1.41,0.119626959785448,0.979887992527378
1.412,0.118016066576151,0.980064276078755
1.414,0.116400713711057,0.980238475767971
1.416,0.114780926874997,0.980410567000065
1.418,0.113156732208556,0.980580525216988
1.42,0.111528156327588,0.980748325899988
1.422,0.109895226344646,0.980913944571972
1.424,0.108257969892529,0.981077356799845
1.426,0.106616415150213,0.981238538196815
1.428,0.104970590871456,0.981397464424663
1.43,0.103320526416409,0.981554111195987
1.432,0.1016662517866,0.981708454276401
1.434,0.100007797663735,0.981860469486694
1.436,0.098345195452798,0.982010132704955
1.438,0.0966784773300188,0.982157419868643
1.44,0.0950076762963534,0.982302306976617
1.442,0.093332826237232,0.982444770091106
1.444,0.091653961989427,0.982584785339636
1.446,0.0899711194160504,0.982722328916887
1.448,0.0882843354908351,0.982857377086502
1.45,0.0865936483930543,0.982989906182817
1.452,0.0848990976146489,0.983119892612536
1.454,0.0832007240814235,0.983247312856318
1.456,0.0814985702904627,0.983372143470304
1.458,0.0797926804663345,0.98349436108755
1.46,0.0780831007391008,0.983613942419373
1.462,0.0763698793477097,0.983730864256618
1.464,0.0746530668730505,0.983845103470814
1.466,0.0729327165057587,0.983956637015241
1.468,0.071208884354898,0.984065441925871
1.47,0.0694816298048875,0.984171495322219
1.472,0.0677510159296003,0.984274774408055
1.474,0.0660171099744746,0.984375256471995
1.476,0.0642799839198858,0.984472918887957
1.478,0.0625397151420423,0.984567739115478
1.48,0.0607963871914608,0.984659694699875
1.482,0.059050090713928,0.984748763272252
1.484,0.0573009245450039,0.984834922549342
1.486,0.0555489970170865,0.984918150333159
1.488,0.0537944275283311,0.984998424510478
1.49,0.0520373484361514,0.985075723052111
1.492,0.0502779073556952,0.985150024011968
1.494,0.0485162699671084,0.98522130552591
1.496,0.0467526234667351,0.98528954581035
1.498,0.0449871808397407,0.985354723160619
1.5,0.0432201861893197,0.985416815949068
1.502,0.0414519214371882,0.985475802622886
1.504,0.0396827148208174,0.985531661701626
1.506,0.0379129517690307,0.985584371774421
1.508,0.0361430889604998,0.985633911496866
1.51,0.0343736726921384,0.985680259587547
1.512,0.0326053631575253,0.985723394824203
1.514,0.0308389669402358,0.985763296039483
1.516,0.0290754810935139,0.98579994211629
1.518,0.0273161538192012,0.985833311982676
1.52,0.0255625693298664,0.985863384606257
1.522,0.0238167685783664,0.985890138988127
1.524,0.0220814241976717,0.985913554156231
1.526,0.0203600989950408,0.985933609158165
1.528,0.0186576357895501,0.985950283053362
1.53,0.0169807575795814,0.98596355490463
1.532,0.0153390095754525,0.98597340376899
1.534,0.0137462602322408,0.985979808687767
1.536,0.0122231032961503,0.985982748675899
1.538,0.0108006228599547,0.985982202710382
1.54,0.00952583296203737,0.985978149717817
1.542,0.00846772335514685,0.985970568560972
1.544,0.00771814144562281,0.985959438024315
1.546,0.0073740814747828,0.985944736798416
1.548,0.00749384406040074,0.985926443463153
1.55,0.00805882141907692,0.985904536469628
1.552,0.00898724739217015,0.985878994120701
1.554,0.0101817666866998,0.985849794550021
1.556,0.0115615886713064,0.985816915699464
1.558,0.0130693838059438,0.985780335294837
1.56,0.0146668302614565,0.985740030819708
1.562,0.0163286164662325,0.985695979487234
1.564,0.0180378530011362,0.985648158209802
1.566,0.0197830492284946,0.985596543566329
1.568,0.0215562102494742,0.985541111766999
1.57,0.0233516466468332,0.985481838615256
1.572,0.0251652222457645,0.985418699466791
1.574,0.026993870306875,0.985351669185293
1.576,0.0288352760470392,0.985280722094661
1.578,0.0306876639860149,0.985205831927383
1.58,0.0325496526419542,0.98512697176873
1.582,0.0344201533590701,0.985044113996399
1.584,0.0362982986173236,0.984957230215182
1.586,0.0381833904038187,0.984866291186203
1.588,0.0400748624755129,0.984771266750225
1.59,0.0419722523992552,0.984672125744448
1.592,0.0438751805798182,0.984568835912182
1.594,0.0457833343546249,0.984461363804707
1.596,0.0476964558121017,0.984349674674533
1.598,0.0496143323818145,0.984233732359214
1.6,0.051536789513136,0.984113499154745
1.60014285714286,0.0516742792177427,0.984104745846812
1.60028571428571,0.0518117915089837,0.984095970431729
1.60042857142857,0.0519493263415097,0.984087172894751
1.60057142857143,0.0520868836706768,0.984078353221087
1.60071428571429,0.0522244634525386,0.984069511395897
1.60085714285714,0.0523620656438405,0.984060647404291
1.601,0.0524996902020111,0.984051761231332
1.60114285714286,0.0526373370851566,0.984042852862032
1.60128571428571,0.0527750062520544,0.984033922281355
1.60142857142857,0.0529126976621461,0.984024969474212
1.60157142857143,0.0530504112755317,0.984015994425468
1.60171428571429,0.0531881470529629,0.984006997119932
1.60185714285714,0.0533259049558371,0.983997977542368
1.602,0.053463684946191,0.983988935677483
1.60214285714286,0.0536014869866953,0.983979871509938
1.60228571428571,0.0537393110406493,0.983970785024338
1.60242857142857,0.0538771570719734,0.983961676205238
1.60257142857143,0.0540150250452051,0.983952545037138
1.60271428571429,0.0541529149254932,0.983943391504489
1.60285714285714,0.054290826678592,0.983934215591684
1.603,0.0544287602708548,0.983925017283069
1.60314285714286,0.0545667156692319,0.983915796562929
1.60328571428571,0.0547046928412621,0.983906553415501
1.60342857142857,0.054842691755069,0.983897287824962
1.60357142857143,0.0549807123793562,0.983887999775439
1.60371428571429,0.0551187546834025,0.983878689251001
1.60385714285714,0.0552568186370557,0.983869356235662
1.604,0.0553949042107295,0.98386000071338
1.60414285714286,0.0555330113753984,0.983850622668057
1.60428571428571,0.0556711401025927,0.983841222083541
1.60442857142857,0.0558092903643937,0.983831798943618
1.60457142857143,0.05594746213343,0.98382235323202
1.60471428571429,0.0560856553828738,0.983812884932421
1.60485714285714,0.0562238700864348,0.983803394028439
1.605,0.056362106218357,0.983793880503627
1.60514285714286,0.0565003637534151,0.983784344341487
1.60528571428571,0.0566386426669098,0.983774785525459
1.60542857142857,0.056776942934663,0.983765204038921
1.60557142857143,0.0569152645330158,0.983755599865195
1.60571428571429,0.0570536074388234,0.98374597298754
1.60585714285714,0.0571919716294516,0.983736323389158
1.606,0.0573303570827727,0.983726651053187
1.60614285714286,0.0574687637771627,0.983716955962703
1.60628571428571,0.057607191691497,0.983707238100723
1.60642857142857,0.0577456408051471,0.983697497450202
1.60657142857143,0.057884111097977,0.983687733994029
1.60671428571429,0.0580226025503407,0.983677947715034
1.60685714285714,0.0581611151430776,0.983668138595981
1.607,0.0582996488575093,0.983658306619572
1.60714285714286,0.0584382036754381,0.983648451768446
1.60728571428571,0.058576779579142,0.983638574025174
1.60742857142857,0.0587153765513716,0.983628673372265
1.60757142857143,0.058853994575349,0.983618749792162
1.60771428571429,0.0589926336347626,0.983608803267242
1.60785714285714,0.0591312937137658,0.983598833779817
1.608,0.0592699747969723,0.983588841312131
1.60814285714286,0.0594086768694555,0.983578825846363
1.60828571428571,0.0595473999167445,0.983568787364622
1.60842857142857,0.0596861439248211,0.983558725848951
1.60857142857143,0.0598249088801181,0.983548641281326
1.60871428571429,0.0599636947695158,0.983538533643652
1.60885714285714,0.0601025015803403,0.983528402917766
1.609,0.0602413293003597,0.983518249085435
1.60914285714286,0.0603801779177834,0.983508072128358
1.60928571428571,0.0605190474212582,0.983497872028162
1.60942857142857,0.0606579377998668,0.983487648766402
1.60957142857143,0.0607968490431248,0.983477402324565
1.60971428571429,0.0609357811409792,0.983467132684063
1.60985714285714,0.0610747340838058,0.98345683982624
1.61,0.0612137078624065,0.983446523732362
1.61014285714286,0.0613527024680088,0.983436184383626
1.61028571428571,0.0614917178922617,0.983425821761155
1.61042857142857,0.0616307541272338,0.983415435845996
1.61057142857143,0.0617698111654143,0.983405026619124
1.61071428571429,0.0619088889997069,0.983394594061438
1.61085714285714,0.0620479876234303,0.983384138153761
1.611,0.0621871070303164,0.98337365887684
1.61114285714286,0.0623262472145072,0.983363156211349
1.61128571428571,0.0624654081705539,0.98335263013788
1.61142857142857,0.0626045898934153,0.983342080636951
1.61157142857143,0.0627437923784545,0.983331507689003
1.61171428571429,0.0628830156214404,0.983320911274395
1.61185714285714,0.0630222596185425,0.983310291373411
1.612,0.0631615243663312,0.983299647966252
1.61214285714286,0.0633008098617768,0.983288981033043
1.61228571428571,0.0634401161022469,0.983278290553828
1.61242857142857,0.063579443085504,0.983267576508567
1.61257142857143,0.0637187908097065,0.983256838877141
1.61271428571429,0.0638581592734055,0.98324607763935
1.61285714285714,0.0639975484755445,0.983235292774911
1.613,0.0641369584154566,0.983224484263456
1.61314285714286,0.0642763890928643,0.983213652084536
1.61328571428571,0.0644158405078784,0.983202796217618
1.61342857142857,0.0645553126609964,0.983191916642083
1.61357142857143,0.0646948055531007,0.983181013337228
1.61371428571429,0.0648343191854586,0.983170086282265
1.61385714285714,0.0649738535597204,0.983159135456318
1.614,0.0651134086779185,0.983148160838425
1.61414285714286,0.0652529845424656,0.983137162407539
1.61428571428571,0.0653925811561556,0.983126140142522
1.61442857142857,0.0655321985221608,0.983115094022149
1.61457142857143,0.0656718366440307,0.983104024025107
1.61471428571429,0.0658114955256933,0.983092930129992
1.61485714285714,0.0659511751714519,0.98308181231531
1.615,0.0660908755859848,0.983070670559477
1.61514285714286,0.0662305967743451,0.983059504840818
1.61528571428571,0.0663703387419601,0.983048315137567
1.61542857142857,0.0665101014946282,0.983037101427862
1.61557142857143,0.0666498850385213,0.983025863689752
1.61571428571429,0.0667896893801819,0.98301460190119
1.61585714285714,0.0669295145265242,0.983003316040036
1.616,0.0670693604848301,0.982992006084055
1.61614285714286,0.0672092272627531,0.982980672010916
1.61628571428571,0.0673491148683142,0.982969313798192
1.61642857142857,0.0674890233099022,0.98295793142336
1.61657142857143,0.0676289525962744,0.982946524863799
1.61671428571429,0.0677689027365542,0.98293509409679
1.61685714285714,0.0679088737402318,0.982923639099517
1.617,0.0680488656171632,0.982912159849062
1.61714285714286,0.0681888783775704,0.982900656322411
1.61728571428571,0.0683289120320404,0.982889128496445
1.61742857142857,0.0684689665915243,0.982877576347947
1.61757142857143,0.0686090420673382,0.982865999853598
1.61771428571429,0.0687491384711621,0.982854398989975
1.61785714285714,0.0688892558150394,0.982842773733552
1.618,0.069029394111377,0.982831124060701
1.61814285714286,0.0691695533729451,0.982819449947688
1.61828571428571,0.0693097336128765,0.982807751370676
1.61842857142857,0.0694499348446665,0.982796028305718
1.61857142857143,0.0695901570821741,0.982784280728763
1.61871428571429,0.0697304003396186,0.982772508615653
1.61885714285714,0.0698706646315834,0.982760711942123
1.619,0.0700109499730122,0.982748890683796
1.61914285714286,0.0701512563792119,0.982737044816188
1.61928571428571,0.0702915838658506,0.982725174314706
1.61942857142857,0.0704319324489592,0.982713279154643
1.61957142857143,0.0705723021449286,0.982701359311185
1.61971428571429,0.0707126929705134,0.9826894147594
1.61985714285714,0.0708531049428292,0.982677445474246
1.62,0.0709935380793533,0.98266545143057
1.62014285714286,0.071133992397925,0.982653432603099
1.62028571428571,0.0712744679167465,0.982641388966449
1.62042857142857,0.0714149646543808,0.982629320495117
1.62057142857143,0.0715554826297543,0.982617227163487
1.62071428571429,0.0716960218621555,0.982605108945821
1.62085714285714,0.0718365823712357,0.982592965816266
1.621,0.071977164177009,0.982580797748849
1.62114285714286,0.0721177672998525,0.982568604717475
1.62128571428571,0.0722583917605075,0.982556386695932
1.62142857142857,0.0723990375800773,0.982544143657885
1.62157142857143,0.072539704780031,0.982531875576874
1.62171428571429,0.0726803933822009,0.982519582426322
1.62185714285714,0.0728211034087844,0.98250726417952
1.622,0.0729618348823435,0.982494920809642
1.62214285714286,0.0731025878258062,0.982482552289732
1.62228571428571,0.0732433622624661,0.982470158592708
1.62242857142857,0.0733841582159828,0.982457739691362
1.62257142857143,0.0735249757103826,0.982445295558357
1.62271428571429,0.0736658147700599,0.982432826166228
1.62285714285714,0.0738066754197753,0.982420331487379
1.623,0.0739475576846591,0.982407811494083
1.62314285714286,0.0740884615902095,0.982395266158484
1.62328571428571,0.0742293871622945,0.98238269545259
1.62342857142857,0.0743703344271514,0.982370099348279
1.62357142857143,0.074511303411389,0.982357477817292
1.62371428571429,0.0746522941419866,0.982344830831238
1.62385714285714,0.0747933066462955,0.982332158361586
1.624,0.0749343409520395,0.982319460379671
1.62414285714286,0.0750753970873156,0.982306736856689
1.62428571428571,0.0752164750805949,0.982293987763699
1.62442857142857,0.0753575749607227,0.982281213071617
1.62457142857143,0.0754986967569202,0.982268412751221
1.62471428571429,0.0756398404987851,0.982255586773146
1.62485714285714,0.0757810062162917,0.982242735107886
1.625,0.0759221939397911,0.982229857725788
1.62514285714286,0.0760634037000151,0.982216954597059
1.62528571428571,0.0762046355280739,0.982204025691758
1.62542857142857,0.0763458894554577,0.982191070979797
1.62557142857143,0.0764871655140393,0.982178090430943
1.62571428571429,0.0766284637360728,0.982165084014811
1.62585714285714,0.0767697841541966,0.98215205170087
1.626,0.0769111268014315,0.982138993458436
1.62614285714286,0.077052491711185,0.982125909256675
1.62628571428571,0.0771938789172509,0.9821127990646
1.62642857142857,0.0773352884538089,0.982099662851069
1.62657142857143,0.0774767203554281,0.982086500584788
1.62671428571429,0.0776181746570673,0.982073312234306
1.62685714285714,0.077759651394075,0.982060097768014
1.627,0.0779011506021911,0.982046857154148
1.62714285714286,0.0780426723175486,0.982033590360782
1.62728571428571,0.0781842165766757,0.982020297355832
1.62742857142857,0.0783257834164933,0.982006978107053
1.62757142857143,0.0784673728743202,0.981993632582037
1.62771428571429,0.0786089849878724,0.981980260748211
1.62785714285714,0.0787506197952651,0.981966862572841
1.628,0.0788922773350125,0.981953438023026
1.62814285714286,0.0790339576460308,0.981939987065697
1.62828571428571,0.0791756607676394,0.98192650966762
1.62842857142857,0.0793173867395605,0.981913005795388
1.62857142857143,0.0794591356019225,0.981899475415427
1.62871428571429,0.0796009073952605,0.981885918493991
1.62885714285714,0.0797427021605174,0.98187233499716
1.629,0.0798845199390456,0.981858724890842
1.62914285714286,0.0800263607726088,0.981845088140771
1.62928571428571,0.0801682247033834,0.9818314247125
1.62942857142857,0.0803101117739591,0.98181773457141
1.62957142857143,0.0804520220273412,0.981804017682701
1.62971428571429,0.0805939555069525,0.981790274011393
1.62985714285714,0.080735912256634,0.981776503522324
1.63,0.0808778923206463,0.981762706180153
1.63014285714286,0.0810198957436725,0.981748881949352
1.63028571428571,0.0811619225708189,0.98173503079421
1.63042857142857,0.0813039728476162,0.981721152678828
1.63057142857143,0.0814460466200226,0.98170724756712
1.63071428571429,0.0815881439344238,0.981693315422814
1.63085714285714,0.0817302648376362,0.981679356209444
1.631,0.0818724093769073,0.981665369890353
1.63114285714286,0.0820145775999186,0.981651356428694
1.63128571428571,0.0821567695547865,0.981637315787422
